#Time          v(b)          v(c)          v(e)          v(e2)         v(f1)         v(f2)         v(vcc)       
 0.            0.            0.            0.            0.            0.            0.            0.           
 1.E-6         11.619043E-6  0.0012        0.            8.7092093E-6  9.5801301E-6  10.546852E-6  0.0012       
 2.E-6         24.444535E-6  0.0023999999  0.            17.197646E-6  19.363909E-6  21.770694E-6  0.0024       
 3.E-6         39.638013E-6  0.0035999999  0.            25.25389E-6   29.54273E-6   34.316625E-6  0.0036       
 4.E-6         57.11146E-6   0.0047999998  0.            32.896268E-6  40.092615E-6  48.122194E-6  0.0048       
 5.E-6         76.780413E-6  0.0059999998  0.            40.142349E-6  50.990626E-6  63.127551E-6  0.006        
 16.875E-6     445.44381E-6  0.020249999   0.            102.66653E-6  198.30757E-6  310.03933E-6  0.02025      
 28.75E-6      0.0010156944  0.034499999   0.            131.57911E-6  366.30346E-6  650.64232E-6  0.0345       
 40.625E-6     0.001718207   0.048749998   0.            140.99905E-6  537.56664E-6  0.001037416   0.04875      
 52.5E-6       0.0025104736  0.062999998   1.E-15        139.37181E-6  702.40952E-6  0.0014423526  0.063        
 68.333333E-6  0.0036615017  0.081999997   1.E-15        128.56843E-6  903.72538E-6  0.0019829401  0.082        
 84.166667E-6  0.0048902802  0.101         1.E-15        113.30608E-6  0.0010799469  0.0025076861  0.101        
 100.E-6       0.0061756532  0.12          2.E-15        96.959039E-6  0.0012300595  0.003007134   0.12         
 133.33333E-6  0.0090151067  0.15999999    4.E-15        65.036418E-6  0.0014681288  0.0039648931  0.16         
 166.66667E-6  0.011997062   0.19999999    6.E-15        38.89536E-6   0.0016152063  0.0047990783  0.2          
 200.E-6       0.015088355   0.23999999    9.E-15        18.867842E-6  0.0016914478  0.005522698   0.24         
 250.E-6       0.019884415   0.29999999    13.E-15      -2.1279242E-6  0.0017122703  0.0064362682  0.3          
 300.E-6       0.024831111   0.35999997    19.E-15      -14.933088E-6  0.0016565032  0.0071797326  0.36         
 350.E-6       0.029891325   0.41999987    26.E-15      -21.380085E-6  0.0015561403  0.0077886146  0.42         
 400.E-6       0.035039715   0.47999883    34.E-15      -15.773918E-6  0.0014370113  0.0082930384  0.48         
 450.E-6       0.040277887   0.53998834    44.E-15       76.711894E-6  0.0013590072  0.0087435491  0.54         
 500.E-6       0.045801691   0.59988614    54.E-15       990.37131E-6  0.0017722699  0.0094392343  0.6          
 533.33333E-6  0.050350078   0.63953285    62.E-15       0.0041204379  0.0036409715  0.010948778   0.64         
 550.E-6       0.053234197   0.65913166    66.E-15       0.0076844473  0.0058025031  0.012494788   0.66         
 566.66667E-6  0.056391073   0.67851693    70.E-15       0.013224639   0.0089764065  0.014533979   0.68         
 583.33333E-6  0.059570327   0.69768347    74.E-15       0.020856644   0.013029999   0.016843027   0.7          
 600.E-6       0.062479332   0.71666088    79.E-15       0.030377062   0.017643907   0.019106583   0.72         
 633.33333E-6  0.067070345   0.75420965    88.E-15       0.05368789    0.027384512   0.022781702   0.76         
 655.55556E-6  0.069159349   0.77904669    94.E-15       0.071423107   0.033638999   0.024335802   0.78666667   
 677.77778E-6  0.070865134   0.80378194    101.E-15      0.090315247   0.039540154   0.025376989   0.81333333   
 700.E-6       0.072372368   0.82844396    108.E-15      0.11004961    0.045030542   0.026020149   0.84         
 733.33333E-6  0.074551498   0.86533816    118.E-15      0.14078708    0.052496128   0.026468289   0.88         
 766.66667E-6  0.076795712   0.90214807    129.E-15      0.17250527    0.059054438   0.026458484   0.92         
 800.E-6       0.07922591    0.93889722    141.E-15      0.2049275     0.064794929   0.0261588     0.96         
 900.E-6       0.087699508   1.0489084     179.E-15      0.3049154     0.078185709   0.024440805   1.08         
 0.001         0.097493734   1.1587117     219.E-15      0.40738251    0.08695848    0.02209129    1.2          
 0.0011        0.10817115    1.2683898     264.E-15      0.51128939    0.092855076   0.019884379   1.32         
 0.0012        0.11918742    1.377987      313.E-15      0.61613727    0.096879804   0.017946476   1.44         
 0.0013        0.13035522    1.4875258     366.E-15      0.7216441     0.099698137   0.016362085   1.56         
 0.0014        0.14154691    1.5970208     423.E-15      0.82763816    0.10171186    0.015099603   1.68         
 0.0015        0.15271786    1.7064816     485.E-15      0.93400646    0.10318118    0.014115975   1.8          
 0.0016        0.16384856    1.815915      551.E-15      1.0406711     0.10427154    0.013358073   1.92         
 0.0017        0.17493749    1.925326      622.E-15      1.1475762     0.10509351    0.012779247   2.04         
 0.0018        0.18598831    2.0347182     698.E-15      1.2546802     0.10572172    0.012339189   2.16         
 0.0019        0.19700729    2.1440946     779.E-15      1.3619514     0.10620815    0.012005694   2.28         
 0.002         0.20800057    2.2534574     866.E-15      1.4693651     0.10658943    0.011753255   2.4          
 0.0021        0.21897371    2.3628084     959.E-15      1.5769018     0.10689192    0.011562216   2.52         
 0.0022        0.22993129    2.4721491     1.061E-12     1.6845455     0.10713478    0.011417511   2.64         
 0.0023        0.24087698    2.5814807     1.173E-12     1.7922833     0.1073321     0.011307717   2.76         
 0.0024        0.25181365    2.6908042     1.298E-12     1.9001046     0.10749434    0.0112242     2.88         
 0.0025        0.26274351    2.8001206     1.442E-12     2.0080001     0.10762934    0.011160466   3.           
 0.0026        0.27366824    2.9094304     1.611E-12     2.1159624     0.10774298    0.011111633   3.12         
 0.0027        0.28458912    3.0187344     1.817E-12     2.2239848     0.10783974    0.011074038   3.24         
 0.0028        0.29550711    3.128033      2.077E-12     2.3320619     0.10792302    0.011044935   3.36         
 0.0029        0.30642294    3.2373268     2.418E-12     2.4401886     0.10799545    0.011022263   3.48         
 0.003         0.31734011    3.346616      2.878E-12     2.5483608     0.10805639    0.011009082   3.6          
 0.0031        0.32825121    3.4559012     3.52E-12      2.6565748     0.10810985    0.010995377   3.72         
 0.0032        0.33916343    3.5651825     4.436E-12     2.7648272     0.10815919    0.010985624   3.84         
 0.0033        0.35007412    3.6744603     5.768E-12     2.8731151     0.10820372    0.010976939   3.96         
 0.0034        0.36098477    3.7837348     7.731E-12     2.9814358     0.10824452    0.01096996    4.08         
 0.0035        0.37189492    3.893006      10.656E-12    3.089787      0.1082818     0.01096393    4.2          
 0.0036        0.38280492    4.0022741     15.043E-12    3.1981665     0.10831607    0.010958827   4.32         
 0.0037        0.39371469    4.1115392     21.658E-12    3.3065722     0.1083476     0.01095438    4.44         
 0.0038        0.40462432    4.2208011     31.669E-12    3.4150023     0.10837665    0.010950482   4.56         
 0.0039        0.41553381    4.3300598     46.855E-12    3.5234548     0.10840339    0.010946988   4.68         
 0.004         0.42644318    4.4393147     69.929E-12    3.6319278     0.10842793    0.010943784   4.8          
 0.0041        0.43735241    4.5485651     105.027E-12   3.7404192     0.10845026    0.010940745   4.92         
 0.0042        0.4482615     4.6578101     161.468E-12   3.8489267     0.10847027    0.01093773    5.04         
 0.0043        0.4591704     4.7670477     247.434E-12   3.9574471     0.10848766    0.010934562   5.16         
 0.0044        0.47007903    4.8762752     378.412E-12   4.0659767     0.1085019     0.010930998   5.28         
 0.0045        0.4809873     4.9854882     578.015E-12   4.1745102     0.10851209    0.010926697   5.4          
 0.0046        0.49189501    5.0946801     882.237E-12   4.28304       0.10851679    0.010921153   5.52         
 0.0047        0.50280191    5.2038408     1.345948E-9   4.3915551     0.10851374    0.010913618   5.64         
 0.0048        0.51370758    5.3129547     2.052778E-9   4.5000394     0.10849946    0.010902961   5.76         
 0.0049        0.52461137    5.4219981     3.130177E-9   4.6084685     0.10846857    0.010887476   5.88         
 0.005         0.53551234    5.5309348     4.772316E-9   4.7168057     0.10841289    0.010864578   6.           
 0.0051        0.54640902    5.6397099     7.274909E-9   4.8249957     0.1083199     0.010830353   6.12         
 0.0052        0.5572992     5.7482398     11.08804E-9   4.9329545     0.10817057    0.010778888   6.2399999    
 0.0053        0.56817956    5.8563974     16.896147E-9  5.0405555     0.10793608    0.010701274   6.3599999    
 0.0054        0.57906923    5.9639861     25.743624E-9  5.147602      0.10754835    0.010621538   6.4799999    
 0.0055        0.58991335    6.0707233     39.208619E-9  5.2538125     0.10695367    0.010472701   6.5999999    
 0.0056        0.60073657    6.176166      59.676793E-9  5.3587452     0.10605807    0.01025467    6.7199999    
 0.0057        0.61151332    6.2796665     90.746913E-9  5.4617551     0.10470593    0.0099226561  6.8399999    
 0.0058        0.62222784    6.3802629     137.80862E-9  5.5618837     0.10267692    0.0094278233  6.9599999    
 0.0059        0.63285228    6.4765584     208.87547E-9  5.6577399     0.099656377   0.0086983442  7.0799999    
 0.006         0.64335185    6.566559      315.73273E-9  5.7473373     0.095208121   0.0076397772  7.1999999    
 0.0061        0.65368343    6.6474875     475.47228E-9  5.82791       0.088748058   0.0061330939  7.3199999    
 0.0062        0.66379753    6.7155888     712.45001E-9  5.8957177     0.079526794   0.0040383922  7.4399999    
 0.0063        0.67364171    6.7659548     1.0606537E-6  5.9458719     0.066630222   0.001204814   7.5599999    
 0.0064        0.68316496    6.7924054     1.5663961E-6  5.9722178     0.049005683  -0.0025130394  7.6799999    
 0.0065        0.69232186    6.7874629     2.2911676E-6  5.967309      0.025517501  -0.0072337176  7.7999999    
 0.0066        0.70107549    6.7424518     3.3144038E-6  5.922509     -0.0049688646 -0.013025022   7.9199999    
 0.0067        0.70939875    6.6477465     4.7358653E-6  5.8282393    -0.04347904   -0.019880539   8.0399999    
 0.0068        0.71727437    6.4931689     6.6772973E-6  5.67438      -0.090806818  -0.027699889   8.1599999    
 0.0069        0.72469389    6.2685248     9.2827933E-6  5.4508092    -0.14738735   -0.036275696   8.2799999    
 0.007         0.73165617    5.9642497     12.718901E-6  5.1480554    -0.21317842   -0.045289371   8.3999999    
 0.0071        0.73816571    5.5721281     17.171579E-6  4.7580281    -0.2875614    -0.054316693   8.5199999    
 0.0072        0.74423103    5.0860342     22.842635E-6  4.2747808    -0.36927253   -0.062843278   8.64         
 0.0073        0.74986339    4.5026307     29.944283E-6  3.6952539    -0.45637303   -0.070289278   8.76         
 0.0074        0.75507599    3.8219352     38.692282E-6  3.0199452    -0.54626369   -0.076041809   8.88         
 0.0075        0.7598838     3.047582      49.298113E-6  2.2534594    -0.63574382   -0.079491838   9.           
 0.0076        0.76430582    2.1861461     61.961468E-6  1.4049266    -0.72109685   -0.080066041   9.12         
 0.0077        0.7683885     1.2389464     76.871462E-6  0.48861826   -0.79802891   -0.0771804     9.24         
 0.0078        0.77382376    0.10262251    94.447325E-6  0.038818941  -0.61643951    0.028511102   9.36         
 0.00785       0.77292191    0.13008767    103.91566E-6  0.029561707  -0.45460241    0.093767744   9.42         
 0.0079        0.77294709    0.13756827    113.38146E-6  0.018189318  -0.34655931    0.1209492     9.48         
 0.00795       0.77250334    0.22670232    122.82618E-6  0.014803924  -0.26745995    0.12902911    9.54         
 0.008         0.77285686    0.1822968     132.32696E-6  0.0094310217 -0.21218526    0.12506119    9.6          
 0.00805       0.77193702    0.55076335    141.72032E-6  0.0081238598 -0.16981223    0.11565691    9.66         
 0.0081        0.77312697    0.19870427    151.35604E-6  0.0055835016 -0.13840747    0.10436838    9.72         
 0.00815       0.77332828    0.19193208    161.11611E-6  0.0046802671 -0.11354385    0.092239361   9.78         
 0.0082        0.77361908    0.17023785    170.84961E-6  0.0035806499 -0.093991005   0.08056104    9.84         
 0.00825       0.77385714    0.16135032    180.66819E-6  0.0029877107 -0.078151833   0.069800571   9.9          
 0.0083        0.77411021    0.15266613    190.56102E-6  0.0023675196 -0.065382415   0.060076607   9.96         
 0.00835       0.77434125    0.14734281    200.52887E-6  0.0020037367 -0.054815965   0.051524462   10.02        
 0.0084        0.77457692    0.14239851    210.56959E-6  0.0016223526 -0.046131215   0.044038904   10.08        
 0.00845       0.7747996     0.13883946    220.6823E-6   0.0013835047 -0.03885445    0.037585239   10.14        
 0.0085        0.77502302    0.13556802    230.86585E-6  0.0011358857 -0.032803023   0.03202158    10.2         
 0.0086        0.77545098    0.13066798    251.44269E-6  817.75734E-6 -0.023352152   0.023164208   10.32        
 0.0087        0.77586847    0.1267581     272.29586E-6  565.70737E-6 -0.01668562    0.016731316   10.44        
 0.0088        0.77627178    0.12370614    293.4223E-6   416.68091E-6 -0.011921776   0.012105013   10.56        
 0.0089        0.77666817    0.12107695    314.81974E-6  286.14221E-6 -0.0085375767  0.008774775   10.68        
 0.009         0.77705453    0.11888224    336.48662E-6  214.70445E-6 -0.0061042733  0.0063923274  10.8         
 0.0091        0.77743576    0.11691102    358.42174E-6  144.84083E-6 -0.0043760395  0.0046788545  10.92        
 0.0092        0.77780935    0.11519622    380.62426E-6  111.30512E-6 -0.0031285278  0.0034554518  11.04        
 0.0093        0.77817868    0.11362006    403.09351E-6  72.996857E-6 -0.0022450836  0.0025741206  11.16        
 0.0094        0.77854178    0.11221216    425.82901E-6  58.143479E-6 -0.0016044641  0.001945436   11.28        
 0.0095        0.77890108    0.11090058    448.83033E-6  36.506616E-6 -0.0011530812  0.0014910631  11.4         
 0.0096        0.77925506    0.109708      472.09718E-6  30.614713E-6 -823.59933E-6  0.0011675756  11.52        
 0.0097        0.77960536    0.10859073    495.62926E-6  18.741886E-6 -588.92414E-6  942.53444E-6  11.64        
 0.0098        0.77995117    0.107558      519.42638E-6  15.735401E-6 -419.7814E-6   779.47111E-6  11.76        
 0.0099        0.78029347    0.10658541    543.48837E-6  9.0798629E-6 -302.59998E-6  659.29639E-6  11.88        
 0.01          0.78063168    0.10567906    567.81508E-6  8.3711904E-6 -216.29502E-6  573.16521E-6  12.          
 0.0101        0.78065817    0.1056666     592.27419E-6 -6.284063E-6  -220.75727E-6  360.36764E-6  12.          
 0.0102        0.78068165    0.10570749    616.73298E-6  12.57192E-6  -170.69768E-6  245.90537E-6  12.          
 0.0103        0.78070713    0.10571295    641.19125E-6 -3.0399963E-6 -138.89037E-6  170.33705E-6  12.          
 0.0104        0.78073058    0.10575425    665.649E-6    9.4266155E-6 -94.728004E-6  129.38699E-6  12.          
 0.0105        0.78075568    0.10576631    690.10617E-6 -3.0356116E-6 -75.475638E-6  95.251277E-6  12.          
 0.0106        0.78077928    0.10580509    714.56278E-6  6.546263E-6  -48.578441E-6  77.437402E-6  12.          
 0.0107        0.78080416    0.10582109    739.01879E-6 -2.894749E-6  -40.002104E-6  59.740092E-6  12.          
 0.0108        0.78082789    0.10585745    763.47423E-6  4.6008602E-6 -24.214222E-6  51.712522E-6  12.          
 0.0109        0.78085261    0.10587622    787.92906E-6 -2.5355733E-6 -21.264241E-6  42.009081E-6  12.          
 0.011         0.78087645    0.10591058    812.38332E-6  3.308036E-6  -11.796844E-6  38.570015E-6  12.          
 0.0111        0.78090106    0.1059314     836.83697E-6 -2.1080359E-6 -11.45277E-6   33.048924E-6  12.          
 0.0112        0.78092499    0.10596418    861.29003E-6  2.4265314E-6 -5.5644294E-6  31.782623E-6  12.          
 0.0113        0.7809495     0.10598654    885.7425E-6  -1.6990177E-6 -6.2921317E-6  28.524061E-6  12.          
 0.0114        0.7809735     0.10601808    910.19437E-6  1.8076708E-6 -2.4810143E-6  28.25314E-6   12.          
 0.0115        0.78099795    0.10604161    934.64564E-6 -1.3431865E-6 -3.5490675E-6  26.252487E-6  12.          
 0.0116        0.781022      0.10607218    959.09632E-6  1.3627573E-6 -984.20694E-9  26.401083E-6  12.          
 0.0117        0.7810464     0.10609659    983.5464E-6  -1.0490003E-6 -2.0667155E-6  25.122048E-6  12.          
 0.0118        0.7810705     0.10612641    0.0010079959  1.0359818E-6 -285.83863E-9  25.422667E-6  12.          
 0.0119        0.78109486    0.1061515     0.0010324448 -811.56746E-9 -1.2507883E-6  24.571727E-6  12.          
 0.012         0.78111898    0.10618074    0.0010568931  792.54656E-9  19.150935E-9  24.898421E-6  12.          
 0.0121        0.78114331    0.10620634    0.0010813408 -625.66931E-9 -804.1016E-9   24.325012E-6  12.          
 0.0122        0.78116746    0.10623514    0.0011057878  612.14575E-9  126.98172E-9  24.622596E-6  12.          
 0.0123        0.78119176    0.10626114    0.0011302343 -479.57799E-9 -541.28844E-9  24.213665E-6  12.          
 0.0124        0.78121593    0.10628959    0.0011546803  475.11523E-9  152.08063E-9  24.466598E-6  12.          
 0.0125        0.78124022    0.10631589    0.0011791256 -365.56757E-9 -380.21981E-9  24.168315E-6  12.          
 0.0126        0.7812644     0.10634409    0.0012035703  370.53712E-9  141.72265E-9  24.375264E-6  12.          
 0.0127        0.78128867    0.10637061    0.0012280144 -276.9796E-9  -277.33975E-9  24.153979E-6  12.          
 0.0128        0.78131286    0.1063986     0.0012524579  290.4681E-9   118.54093E-9  24.319561E-6  12.          
 0.0129        0.78133712    0.10642531    0.0012769008 -208.33888E-9 -208.93557E-9  24.153363E-6  12.          
 0.013         0.78136132    0.10645314    0.0013013431  229.03197E-9  92.891615E-9  24.284026E-6  12.          
 0.0131        0.78138557    0.10647999    0.0013257849 -155.27965E-9 -161.66732E-9  24.158152E-6  12.          
 0.0132        0.78140978    0.1065077     0.001350226   181.83441E-9  69.211825E-9  24.260304E-6  12.          
 0.0133        0.78143402    0.10653465    0.0013746665 -114.28549E-9 -128.17197E-9  24.164326E-6  12.          
 0.0134        0.78145823    0.10656227    0.0013991065  145.53513E-9  48.888569E-9  24.243748E-6  12.          
 0.0135        0.78148247    0.1065893     0.0014235458 -82.642888E-9 -103.83634E-9  24.17025E-6   12.          
 0.0136        0.78150668    0.10661684    0.0014479845  117.59807E-9  32.172633E-9  24.23175E-6   12.          
 0.0137        0.78153092    0.10664394    0.0014724227 -58.232202E-9 -85.835991E-9  24.175283E-6  12.          
 0.0138        0.78155513    0.10667143    0.0014968602  96.087371E-9  18.751939E-9  24.222761E-6  12.          
 0.0139        0.78157936    0.10669857    0.0015212972 -39.407335E-9 -72.349871E-9  24.179268E-6  12.          
 0.014         0.78160357    0.10672601    0.0015457335  79.52E-9      8.133709E-9   24.215834E-6  12.          
 0.0141        0.7816278     0.10675319    0.0015701693 -24.893538E-9 -62.154395E-9  24.182262E-6  12.          
 0.0142        0.78165202    0.10678061    0.0015946045  66.757501E-9 -190.212E-12   24.210362E-6  12.          
